
**** 12/21/20 14:50:53 ******* PSpice 17.4.0 (Nov 2018) ******* ID# 0 ********

 ** Profile: "SCHEMATIC1-bias"  [ C:\Users\talha\Documents\College\2020-2021\Instrumentation\Assignment\Weight Measurment\Circuit Des


 ****     CIRCUIT DESCRIPTION


******************************************************************************




** Creating circuit file "bias.cir" 
** WARNING: THIS AUTOMATICALLY GENERATED FILE MAY BE OVERWRITTEN BY SUBSEQUENT SIMULATIONS

*Libraries: 
* Profile Libraries :
* Local Libraries :
* From [PSPICE NETLIST] section of C:\SPB_DATA\cdssetup\OrCAD_PSpice\17.4.0\PSpice.ini file:
.lib "nom.lib" 

*Analysis directives: 
.TRAN  0 10ns 0 1u 
.OPTIONS ADVCONV
.PROBE64 V(alias(*)) I(alias(*)) W(alias(*)) D(alias(*)) NOISE(alias(*)) 
.INC "..\SCHEMATIC1.net" 



**** INCLUDING SCHEMATIC1.net ****
* source LOAD CELL AMPLIFIER
X_U1A         N14687 N14672 +9V -9V VOUT LM324
R_Rf         N14687 VOUT  1000000 TC=0,0 
R_R1         -9V N14687  1800 TC=0,0 
R_R2         +9V N14672  1800 TC=0,0 
R_Rg         0 N14672  1000000 TC=0,0 
V_V1         +9V 0 9Vdc
V_V2         0 -9V 9Vdc
R_R14         0 N20553  937.5 TC=0,0 
R_R11         N20553 N20481  1800 TC=0,0 
R_Rf1         N20481 N20491  1000000 TC=0,0 
R_R9         N20549 N20437  1100 TC=0,0 
R_R12         N20549 0  1800 TC=0,0 
X_U1B         N20481 0 +9V -9V N20491 LM324
R_R13         0 N20549  942.5 TC=0,0 
V_V4         N20437 0 9Vdc
R_R10         N20553 N20437  1100 TC=0,0 

**** RESUMING bias.cir ****
.END

**** 12/21/20 14:50:53 ******* PSpice 17.4.0 (Nov 2018) ******* ID# 0 ********

 ** Profile: "SCHEMATIC1-bias"  [ C:\Users\talha\Documents\College\2020-2021\Instrumentation\Assignment\Weight Measurment\Circuit Des


 ****     Diode MODEL PARAMETERS


******************************************************************************




               X_U1A.dx        X_U1A.dy        X_U1B.dx        X_U1B.dy        
          IS  800.000000E-18  800.000000E-18  800.000000E-18  800.000000E-18 
          RS    1               1.000000E-03    1               1.000000E-03 
         CJO                   10.000000E-12                   10.000000E-12 


**** 12/21/20 14:50:53 ******* PSpice 17.4.0 (Nov 2018) ******* ID# 0 ********

 ** Profile: "SCHEMATIC1-bias"  [ C:\Users\talha\Documents\College\2020-2021\Instrumentation\Assignment\Weight Measurment\Circuit Des


 ****     BJT MODEL PARAMETERS


******************************************************************************




               X_U1A.qx        X_U1B.qx        
               PNP             PNP             
       LEVEL    1               1            
          IS  800.000000E-18  800.000000E-18 
          BF  166.7           166.7          
          NF    1               1            
          BR    1               1            
          NR    1               1            
         ISS    0               0            
          RE    0               0            
          RC    0               0            
         CJE    0               0            
         VJE     .75             .75         
         CJC    0               0            
         VJC     .75             .75         
         MJC     .33             .33         
        XCJC    1               1            
         CJS    0               0            
         VJS     .75             .75         
          KF    0               0            
          AF    1               1            
          CN    2.2             2.2          
           D     .52             .52         


**** 12/21/20 14:50:53 ******* PSpice 17.4.0 (Nov 2018) ******* ID# 0 ********

 ** Profile: "SCHEMATIC1-bias"  [ C:\Users\talha\Documents\College\2020-2021\Instrumentation\Assignment\Weight Measurment\Circuit Des


 ****     Current Controlled Switch MODEL PARAMETERS


******************************************************************************




               X_U1A.sw2       X_U1A.sw1       X_U1A.sw3       X_U1A.sw4       
         RON    1               1               1               1            
        ROFF   10.000000E+06   10.000000E+06   10.000000E+06   10.000000E+06 
         ION    0              -1.000000E-06   -1.000000E-06    0            
        IOFF   -1.000000E-06    0               0              -1.000000E-06 


               X_U1B.sw2       X_U1B.sw1       X_U1B.sw3       X_U1B.sw4       
         RON    1               1               1               1            
        ROFF   10.000000E+06   10.000000E+06   10.000000E+06   10.000000E+06 
         ION    0              -1.000000E-06   -1.000000E-06    0            
        IOFF   -1.000000E-06    0               0              -1.000000E-06 


**** 12/21/20 14:50:53 ******* PSpice 17.4.0 (Nov 2018) ******* ID# 0 ********

 ** Profile: "SCHEMATIC1-bias"  [ C:\Users\talha\Documents\College\2020-2021\Instrumentation\Assignment\Weight Measurment\Circuit Des


 ****     INITIAL TRANSIENT SOLUTION       TEMPERATURE =   27.000 DEG C


******************************************************************************



 NODE   VOLTAGE     NODE   VOLTAGE     NODE   VOLTAGE     NODE   VOLTAGE


(  +9V)    9.0000  (  -9V)   -9.0000  ( VOUT)   -8.9943  (N14672)    8.9838     

(N14687)   -8.9998 (N20437)    9.0000 (N20481)    4.1507 (N20491)    8.3163     

(N20549)    3.2395 (N20553)    4.1432 (X_U1A.6)    1.5129                       

(X_U1A.7)  -11.0250                   (X_U1A.8)  -11.0250                       

(X_U1A.9)    0.0000                   (X_U1A.a)     .0406                       

(X_U1A.b)   -8.9594                   (X_U1B.6)   -1.4914                       

(X_U1B.7)   10.3470                   (X_U1B.8)   10.3470                       

(X_U1B.9)    0.0000                   (X_U1B.a)    8.9594                       

(X_U1B.b)    -.0406                   (X_U1A.10)   -8.3580                      

(X_U1A.11)   -9.0000                  (X_U1A.12)   -8.9171                      

(X_U1A.13)   -8.3580                  (X_U1A.14)   -8.3870                      

(X_U1A.53)    7.5000                  (X_U1A.54)   -8.1780                      

(X_U1A.90)  -40.6100                  (X_U1A.91)   40.0000                      

(X_U1A.92)  -40.0000                  (X_U1A.99)    0.0000                      

(X_U1B.10)     .6395                  (X_U1B.11)   -8.9207                      

(X_U1B.12)   -9.0000                  (X_U1B.13)     .6117                      

(X_U1B.14)     .6395                  (X_U1B.53)    7.5000                      

(X_U1B.54)   -8.1780                  (X_U1B.90)   40.6100                      

(X_U1B.91)   40.0000                  (X_U1B.92)  -40.0000                      

(X_U1B.99)    0.0000                  




    VOLTAGE SOURCE CURRENTS
    NAME         CURRENT

    V_V1        -4.009E-03
    V_V2        -3.996E-03
    V_V4        -9.652E-03
    X_U1A.vb     1.513E-05
    X_U1A.vc     1.650E-11
    X_U1A.ve    -4.061E-02
    X_U1A.vlim  -4.061E-02
    X_U1A.vlp   -8.061E-11
    X_U1A.vln    1.400E-05
    X_U1B.vb    -1.491E-05
    X_U1B.vc    -4.061E-02
    X_U1B.ve     1.761E-11
    X_U1B.vlim   4.061E-02
    X_U1B.vlp    1.377E-05
    X_U1B.vln   -8.061E-11

    TOTAL POWER DISSIPATION   2.52E-01  WATTS



          JOB CONCLUDED

**** 12/21/20 14:50:53 ******* PSpice 17.4.0 (Nov 2018) ******* ID# 0 ********

 ** Profile: "SCHEMATIC1-bias"  [ C:\Users\talha\Documents\College\2020-2021\Instrumentation\Assignment\Weight Measurment\Circuit Des


 ****     JOB STATISTICS SUMMARY


******************************************************************************



  License check-out time            =       30.55
  Total job time (using Solver 1)   =         .03
